date Wed Jun 01 09:00:00 2024
base hex  timestamps absolute
no internal events logged
// ECU Trace Dashboard - Sample CAN Bus Log
// Vehicle: Demo ECU v2.3  Test: Highway cruise + braking event
// Generated for demonstration purposes

   0.000000 1  0C0             Rx   d 8 03 20 00 00 00 00 00 00
   0.000500 1  0D0             Rx   d 4 00 00 00 00
   0.001000 1  188             Rx   d 2 00 64
   0.001500 2  3B0             Rx   d 4 4E 20 00 00
   0.002000 1  130             Rx   d 2 00 E6
   0.010000 1  0C0             Rx   d 8 03 34 00 00 00 00 00 00
   0.010500 1  0D0             Rx   d 4 00 00 00 00
   0.020000 1  0C0             Rx   d 8 03 48 00 00 00 00 00 00
   0.020500 1  188             Rx   d 2 01 90
   0.030000 1  0C0             Rx   d 8 04 10 00 00 00 00 00 00
   0.030500 1  0D0             Rx   d 4 00 A0 00 00
   0.040000 1  0C0             Rx   d 8 05 DC 00 00 00 00 00 00
   0.040500 1  188             Rx   d 2 03 E8
   0.050000 1  0C0             Rx   d 8 07 D0 00 00 00 00 00 00
   0.050500 1  0D0             Rx   d 4 01 90 00 00
   0.051000 2  3B0             Rx   d 4 53 E0 00 00
   0.060000 1  0C0             Rx   d 8 09 C4 00 00 00 00 00 00
   0.060500 1  188             Rx   d 2 06 40
   0.070000 1  0C0             Rx   d 8 0B B8 00 00 00 00 00 00
   0.070500 1  0D0             Rx   d 4 04 B0 00 00
   0.080000 1  0C0             Rx   d 8 0D AC 00 00 00 00 00 00
   0.080500 1  188             Rx   d 2 09 60
   0.080750 1  130             Rx   d 2 01 DB
   0.090000 1  0C0             Rx   d 8 0F A0 00 00 00 00 00 00
   0.090500 1  0D0             Rx   d 4 07 D0 00 00
   0.100000 1  0C0             Rx   d 8 11 94 00 00 00 00 00 00
   0.100500 1  188             Rx   d 2 0C 80
   0.101000 2  3B0             Rx   d 4 57 E4 00 00
   0.110000 1  0C0             Rx   d 8 13 88 00 00 00 00 00 00
   0.110500 1  0D0             Rx   d 4 0A F0 00 00
   0.120000 1  0C0             Rx   d 8 15 7C 00 00 00 00 00 00
   0.120500 1  188             Rx   d 2 0F A0
   0.130000 1  0C0             Rx   d 8 17 70 00 00 00 00 00 00
   0.130500 1  0D0             Rx   d 4 0E 10 00 00
   0.130750 1  130             Rx   d 2 02 E7
   0.140000 1  0C0             Rx   d 8 19 64 00 00 00 00 00 00
   0.140500 1  188             Rx   d 2 12 C0
   0.141000 2  3B0             Rx   d 4 57 F0 00 00
   0.150000 1  0C0             Rx   d 8 1B 58 00 00 00 00 00 00
   0.150500 1  0D0             Rx   d 4 11 94 00 00
   0.160000 1  0C0             Rx   d 8 1B 58 00 00 00 00 00 00
   0.170000 1  0C0             Rx   d 8 1A E0 00 00 00 00 00 00
   0.170500 1  0D0             Rx   d 4 11 94 00 00
   0.180000 1  0C0             Rx   d 8 1A 28 00 00 00 00 00 00
   0.180500 1  188             Rx   d 2 11 94
   0.181000 2  3B0             Rx   d 4 57 E8 00 00
   0.190000 1  0C0             Rx   d 8 19 C8 00 00 00 00 00 00
   0.190500 1  0D0             Rx   d 4 11 94 00 00
   0.200000 1  0C0             Rx   d 8 19 C8 00 00 00 00 00 00
   0.200500 1  188             Rx   d 2 0C 80
   0.201000 1  1A0             Rx   d 2 14 14
   0.202000 1  130             Rx   d 2 04 1A
   0.210000 1  0C0             Rx   d 8 17 70 00 00 00 00 00 00
   0.210500 1  0D0             Rx   d 4 0E 10 00 00
   0.210750 1  1A0             Rx   d 2 28 28
   0.220000 1  0C0             Rx   d 8 12 EC 00 00 00 00 00 00
   0.220500 1  188             Rx   d 2 07 D0
   0.220750 1  1A0             Rx   d 2 4B 00
   0.221000 2  3B0             Rx   d 4 37 00 00 00
   0.230000 1  0C0             Rx   d 8 0C 80 00 00 00 00 00 00
   0.230500 1  0D0             Rx   d 4 05 DC 00 00
   0.230750 1  1A0             Rx   d 2 64 00
   0.240000 1  0C0             Rx   d 8 07 D0 00 00 00 00 00 00
   0.240500 1  188             Rx   d 2 01 F4
   0.240750 1  1A0             Rx   d 2 5A 00
   0.250000 1  0C0             Rx   d 8 03 84 00 00 00 00 00 00
   0.250500 1  0D0             Rx   d 4 00 00 00 00
   0.250750 1  1A0             Rx   d 2 14 00
   0.251000 1  130             Rx   d 2 04 C2
   0.260000 1  0C0             Rx   d 8 03 34 00 00 00 00 00 00
   0.260500 1  188             Rx   d 2 00 00
   0.260750 1  1A0             Rx   d 2 00 00
   0.261000 2  3B0             Rx   d 4 4E 30 00 00
